Sample in Buffer,Sample in Window,TRIGGER,OUT_1[0:0],OUT_2[1:1],OUT_3[2:2],OUT_4[3:3],OUT_5[4:4],OUT_6[5:5],OUT_7[6:6],OUT_8[7:7],OUT_9[8:8],OUT_10[9:9],OUT_11[10:10],OUT_12[11:11],OUT_13[12:12],OUT_14[13:13],OUT_15[14:14],OUT[15:15],START_IBUF_BUFG,p_0_in,selclk_IBUF
Radix - UNSIGNED,UNSIGNED,UNSIGNED,BINARY,BINARY,BINARY,BINARY,BINARY,BINARY,BINARY,BINARY,BINARY,BINARY,BINARY,BINARY,BINARY,BINARY,BINARY,BINARY,HEX,HEX,HEX
0,0,0,1,1,1,1,1,1,1,1,1,1,1,1,1,1,1,1,1,1,0
1,1,0,1,1,1,1,1,1,1,1,1,1,1,1,1,1,1,1,1,1,0
2,2,0,1,1,1,1,1,1,1,1,1,1,1,1,1,1,1,1,1,1,0
3,3,0,1,1,1,1,1,1,1,1,1,1,1,1,1,1,1,1,1,1,0
4,4,0,1,1,1,1,1,1,1,1,1,1,1,1,1,1,1,1,1,1,0
5,5,0,1,1,1,1,1,1,1,1,1,1,1,1,1,1,1,1,1,1,0
6,6,0,1,1,1,1,1,1,1,1,1,1,1,1,1,1,1,1,1,1,0
7,7,0,1,1,1,1,1,1,1,1,1,1,1,1,1,1,1,1,1,1,0
8,8,0,1,1,1,1,1,1,1,1,1,1,1,1,1,1,1,1,1,1,0
9,9,0,1,1,1,1,1,1,1,1,1,1,1,1,1,1,1,1,1,1,0
10,10,0,1,1,1,1,1,1,1,1,1,1,1,1,1,1,1,1,1,1,0
11,11,0,1,1,1,1,1,1,1,1,1,1,1,1,1,1,1,1,1,1,0
12,12,0,1,1,1,1,1,1,1,1,1,1,1,1,1,1,1,1,1,1,0
13,13,0,1,1,1,1,1,1,1,1,1,1,1,1,1,1,1,1,1,1,0
14,14,0,1,1,1,1,1,1,1,1,1,1,1,1,1,1,1,1,1,1,0
15,15,0,1,1,1,1,1,1,1,1,1,1,1,1,1,1,1,1,1,1,0
16,16,0,1,1,1,1,1,1,1,1,1,1,1,1,1,1,1,1,1,1,0
17,17,0,1,1,1,1,1,1,1,1,1,1,1,1,1,1,1,1,1,1,0
18,18,0,1,1,1,1,1,1,1,1,1,1,1,1,1,1,1,1,1,1,0
19,19,0,1,1,1,1,1,1,1,1,1,1,1,1,1,1,1,1,1,1,0
20,20,0,1,1,1,1,1,1,1,1,1,1,1,1,1,1,1,1,1,1,0
21,21,0,1,1,1,1,1,1,1,1,1,1,1,1,1,1,1,1,1,1,0
22,22,0,1,1,1,1,1,1,1,1,1,1,1,1,1,1,1,1,1,1,0
23,23,0,1,1,1,1,1,1,1,1,1,1,1,1,1,1,1,1,1,1,0
24,24,0,1,1,1,1,1,1,1,1,1,1,1,1,1,1,1,1,1,1,0
25,25,0,1,1,1,1,1,1,1,1,1,1,1,1,1,1,1,1,1,1,0
26,26,0,1,1,1,1,1,1,1,1,1,1,1,1,1,1,1,1,1,1,0
27,27,0,1,1,1,1,1,1,1,1,1,1,1,1,1,1,1,1,1,1,0
28,28,0,1,1,1,1,1,1,1,1,1,1,1,1,1,1,1,1,1,1,0
29,29,0,1,1,1,1,1,1,1,1,1,1,1,1,1,1,1,1,1,1,0
30,30,0,1,1,1,1,1,1,1,1,1,1,1,1,1,1,1,1,1,1,0
31,31,0,1,1,1,1,1,1,1,1,1,1,1,1,1,1,1,1,1,1,0
32,32,0,1,1,1,1,1,1,1,1,1,1,1,1,1,1,1,1,1,1,0
33,33,0,1,1,1,1,1,1,1,1,1,1,1,1,1,1,1,1,1,1,0
34,34,0,1,1,1,1,1,1,1,1,1,1,1,1,1,1,1,1,1,1,0
35,35,0,1,1,1,1,1,1,1,1,1,1,1,1,1,1,1,1,1,1,0
36,36,0,1,1,1,1,1,1,1,1,1,1,1,1,1,1,1,1,1,1,0
37,37,0,1,1,1,1,1,1,1,1,1,1,1,1,1,1,1,1,1,1,0
38,38,0,1,1,1,1,1,1,1,1,1,1,1,1,1,1,1,1,1,1,0
39,39,0,1,1,1,1,1,1,1,1,1,1,1,1,1,1,1,1,1,1,0
40,40,0,1,1,1,1,1,1,1,1,1,1,1,1,1,1,1,1,1,1,0
41,41,0,1,1,1,1,1,1,1,1,1,1,1,1,1,1,1,1,1,1,0
42,42,0,1,1,1,1,1,1,1,1,1,1,1,1,1,1,1,1,1,1,0
43,43,0,1,1,1,1,1,1,1,1,1,1,1,1,1,1,1,1,1,1,0
44,44,0,1,1,1,1,1,1,1,1,1,1,1,1,1,1,1,1,1,1,0
45,45,0,1,1,1,1,1,1,1,1,1,1,1,1,1,1,1,1,1,1,0
46,46,0,1,1,1,1,1,1,1,1,1,1,1,1,1,1,1,1,1,1,0
47,47,0,1,1,1,1,1,1,1,1,1,1,1,1,1,1,1,1,1,1,0
48,48,0,1,1,1,1,1,1,1,1,1,1,1,1,1,1,1,1,1,1,0
49,49,0,1,1,1,1,1,1,1,1,1,1,1,1,1,1,1,1,1,1,0
50,50,0,1,1,1,1,1,1,1,1,1,1,1,1,1,1,1,1,1,1,0
51,51,0,1,1,1,1,1,1,1,1,1,1,1,1,1,1,1,1,1,1,0
52,52,0,1,1,1,1,1,1,1,1,1,1,1,1,1,1,1,1,1,1,0
53,53,0,1,1,1,1,1,1,1,1,1,1,1,1,1,1,1,1,1,1,0
54,54,0,1,1,1,1,1,1,1,1,1,1,1,1,1,1,1,1,1,1,0
55,55,0,1,1,1,1,1,1,1,1,1,1,1,1,1,1,1,1,1,1,0
56,56,0,1,1,1,1,1,1,1,1,1,1,1,1,1,1,1,1,1,1,0
57,57,0,1,1,1,1,1,1,1,1,1,1,1,1,1,1,1,1,1,1,0
58,58,0,1,1,1,1,1,1,1,1,1,1,1,1,1,1,1,1,1,1,0
59,59,0,1,1,1,1,1,1,1,1,1,1,1,1,1,1,1,1,1,1,0
60,60,0,1,1,1,1,1,1,1,1,1,1,1,1,1,1,1,1,1,1,0
61,61,0,1,1,1,1,1,1,1,1,1,1,1,1,1,1,1,1,1,1,0
62,62,0,1,1,1,1,1,1,1,1,1,1,1,1,1,1,1,1,1,0,0
63,63,1,0,1,1,1,1,1,1,1,1,1,1,1,0,0,0,1,1,0,0
64,64,0,1,1,1,1,1,1,1,1,1,1,1,0,1,0,0,1,1,0,0
65,65,0,1,1,1,1,1,1,1,1,1,1,0,0,1,0,0,0,1,0,0
66,66,0,1,1,1,1,1,0,1,1,1,1,1,1,1,0,0,0,1,0,0
67,67,0,1,1,1,1,1,1,1,1,1,1,0,1,1,0,0,0,1,0,0
68,68,0,1,1,1,1,1,0,1,1,1,1,0,1,1,0,0,0,1,0,0
69,69,0,1,1,1,1,1,1,1,1,1,1,0,0,1,0,0,0,1,0,0
70,70,0,1,1,1,1,1,0,1,1,1,1,0,0,1,0,0,0,1,0,0
71,71,0,1,1,1,1,1,1,1,1,1,1,0,0,1,0,0,0,1,0,0
72,72,0,1,1,1,1,1,0,1,1,1,1,0,0,1,0,0,0,1,0,0
73,73,0,1,1,1,1,1,1,1,1,1,1,0,0,1,0,0,0,1,0,0
74,74,0,1,1,1,1,1,0,1,1,1,1,0,0,1,0,0,0,1,0,0
75,75,0,1,1,1,1,1,0,1,1,1,1,0,0,1,0,0,0,1,0,0
76,76,0,1,1,1,1,1,0,1,1,1,1,0,0,1,0,0,0,1,0,0
77,77,0,1,1,1,1,1,0,1,1,1,1,0,0,1,0,0,0,1,0,0
78,78,0,1,1,1,1,1,0,1,1,1,1,0,0,1,0,0,0,1,0,0
79,79,0,1,1,1,1,1,0,1,1,1,1,0,0,1,0,0,0,1,0,0
80,80,0,1,1,1,1,1,0,1,1,1,1,0,0,1,0,0,0,1,0,0
81,81,0,1,1,1,1,0,0,1,1,1,1,0,0,1,0,0,0,1,0,0
82,82,0,1,1,1,1,1,0,1,1,1,1,0,0,1,0,0,0,1,0,0
83,83,0,1,1,1,1,1,0,1,1,1,1,0,0,1,0,0,0,1,0,0
84,84,0,1,1,1,1,0,0,1,1,1,1,0,0,1,0,0,0,1,0,0
85,85,0,1,1,1,1,0,0,1,1,1,1,0,0,1,0,0,0,1,0,0
86,86,0,1,1,1,1,0,0,1,1,1,1,0,0,1,0,0,0,1,0,0
87,87,0,1,1,1,1,0,0,1,1,1,1,0,0,1,0,0,0,1,0,0
88,88,0,1,1,1,1,0,0,1,1,1,1,0,0,1,0,0,0,1,0,0
89,89,0,1,1,1,1,0,0,1,1,1,1,0,0,1,0,0,0,1,0,0
90,90,0,1,1,1,1,0,0,1,1,1,1,0,0,1,0,0,0,1,0,0
91,91,0,1,1,1,1,0,0,1,1,1,1,0,0,1,0,0,0,1,0,0
92,92,0,1,1,1,1,0,0,1,1,1,1,0,0,1,0,0,0,1,0,0
93,93,0,1,1,1,1,0,0,1,1,1,1,0,0,1,0,0,0,1,0,0
94,94,0,1,1,1,1,0,0,1,1,1,1,0,0,1,0,0,0,1,0,0
95,95,0,1,1,1,1,0,0,1,1,1,1,0,0,1,0,0,0,1,0,0
96,96,0,1,1,1,1,0,0,1,1,1,1,0,0,1,0,0,0,1,0,0
97,97,0,1,1,1,1,0,0,1,1,1,1,0,0,1,0,0,0,1,0,0
98,98,0,1,1,1,1,0,0,1,1,1,1,0,0,1,0,0,0,1,0,0
99,99,0,1,1,1,1,0,0,1,1,1,1,0,0,1,0,0,0,1,0,0
100,100,0,1,1,1,1,0,0,1,1,1,1,0,0,1,0,0,0,1,0,0
101,101,0,1,1,1,1,0,0,1,1,1,1,0,0,1,0,0,0,1,0,0
102,102,0,1,1,1,1,0,0,1,1,1,1,0,0,1,0,0,0,1,0,0
103,103,0,1,1,1,1,0,0,1,1,1,1,0,0,1,0,0,0,1,0,0
104,104,0,1,1,1,1,0,0,1,1,1,1,0,0,1,0,0,0,1,0,0
105,105,0,1,1,1,1,0,0,1,1,1,1,0,0,1,0,0,0,1,0,0
106,106,0,1,1,1,1,0,0,1,1,1,1,0,0,1,0,0,0,1,0,0
107,107,0,1,1,1,1,0,0,1,1,1,1,0,0,1,0,0,0,1,0,0
108,108,0,1,1,1,1,0,0,1,1,1,1,0,0,1,0,0,0,1,0,0
109,109,0,1,1,1,1,0,0,1,1,1,1,0,0,1,0,0,0,1,0,0
110,110,0,1,1,1,1,0,0,1,1,1,1,0,0,1,0,0,0,1,0,0
111,111,0,1,1,1,1,0,0,1,1,1,1,0,0,1,0,0,0,1,0,0
112,112,0,1,1,1,1,0,0,1,1,1,1,0,0,1,0,0,0,1,0,0
113,113,0,1,1,1,1,0,0,1,1,1,1,0,0,1,0,0,0,1,0,0
114,114,0,1,1,1,1,0,0,1,1,1,1,0,0,1,0,0,0,1,0,0
115,115,0,1,1,1,1,0,0,1,1,1,1,0,0,1,0,0,0,1,0,0
116,116,0,1,1,1,1,0,0,1,1,1,1,0,0,1,0,0,0,1,0,0
117,117,0,1,1,1,1,0,0,1,1,1,1,0,0,1,0,0,0,1,0,0
118,118,0,1,1,1,1,0,0,1,1,1,1,0,0,1,0,0,0,1,0,0
119,119,0,1,1,1,1,0,0,1,1,1,1,0,0,1,0,0,0,1,0,0
120,120,0,1,1,1,1,0,0,1,1,1,1,0,0,1,0,0,0,1,0,0
121,121,0,1,1,1,1,0,0,1,1,1,1,0,0,1,0,0,0,1,0,0
122,122,0,1,1,1,1,0,0,1,1,1,1,0,0,1,0,0,0,1,0,0
123,123,0,1,1,1,1,0,0,1,1,1,1,0,0,1,0,0,0,1,0,0
124,124,0,1,1,1,1,0,0,1,1,1,1,0,0,1,0,0,0,1,0,0
125,125,0,1,1,1,1,0,0,1,1,1,1,0,0,1,0,0,0,1,0,0
126,126,0,1,1,1,1,0,0,1,1,1,1,0,0,1,0,0,0,1,0,0
127,127,0,1,1,1,1,0,0,1,1,1,1,0,0,1,0,0,0,1,0,0
128,128,0,1,1,1,1,0,0,1,1,1,1,0,0,1,0,0,0,1,0,0
129,129,0,1,1,1,1,0,0,1,1,1,1,0,0,1,0,0,0,1,0,0
130,130,0,1,1,1,1,0,0,1,1,1,1,0,0,1,0,0,0,1,0,0
131,131,0,1,1,1,1,0,0,1,1,1,1,0,0,1,0,0,0,1,0,0
132,132,0,1,1,1,1,0,0,1,1,1,1,0,0,1,0,0,0,1,0,0
133,133,0,1,1,1,1,0,0,1,1,1,1,0,0,1,0,0,0,1,0,0
134,134,0,1,1,1,1,0,0,1,1,1,1,0,0,1,0,0,0,1,0,0
135,135,0,1,1,1,1,0,0,1,1,1,1,0,0,1,0,0,0,1,0,0
136,136,0,1,1,1,1,0,0,1,1,1,1,0,0,1,0,0,0,1,0,0
137,137,0,1,1,1,1,0,0,1,1,1,1,0,0,1,0,0,0,1,0,0
138,138,0,1,1,1,1,0,0,1,1,1,1,0,0,1,0,0,0,1,0,0
139,139,0,1,1,1,1,0,0,1,1,1,1,0,0,1,0,0,0,1,0,0
140,140,0,1,1,1,1,0,0,1,1,1,1,0,0,1,0,0,0,1,0,0
141,141,0,1,1,1,1,0,0,1,1,1,1,0,0,1,0,0,0,1,0,0
142,142,0,1,1,1,1,0,0,1,1,1,1,0,0,1,0,0,0,1,0,0
143,143,0,1,1,1,1,0,0,1,1,1,1,0,0,1,0,0,0,1,0,0
144,144,0,1,1,1,1,0,0,1,1,1,1,0,0,1,0,0,0,1,0,0
145,145,0,1,1,1,1,0,0,1,1,1,1,0,0,1,0,0,0,1,0,0
146,146,0,1,1,1,1,0,0,1,1,1,1,0,0,1,0,0,0,1,0,0
147,147,0,1,1,1,1,0,0,1,1,1,1,0,0,1,0,0,0,1,0,0
148,148,0,1,1,1,1,0,0,1,1,1,1,0,0,1,0,0,0,1,0,0
149,149,0,1,1,1,1,0,0,1,1,1,1,0,0,1,0,0,0,1,0,0
150,150,0,1,1,1,1,0,0,1,1,1,1,0,0,1,0,0,0,1,0,0
151,151,0,1,1,1,1,0,0,1,1,1,1,0,0,1,0,0,0,1,0,0
152,152,0,1,1,1,1,0,0,1,1,1,1,0,0,1,0,0,0,1,0,0
153,153,0,1,1,1,1,0,0,1,1,1,1,0,0,1,0,0,0,1,0,0
154,154,0,1,1,1,1,0,0,1,1,1,1,0,0,1,0,0,0,1,0,0
155,155,0,1,1,1,1,0,0,1,1,1,1,0,0,1,0,0,0,1,0,0
156,156,0,1,1,1,1,0,0,1,1,1,1,0,0,1,0,0,0,1,0,0
157,157,0,1,1,1,1,0,0,1,1,1,1,0,0,1,0,0,0,1,0,0
158,158,0,1,1,1,1,0,0,1,1,1,1,0,0,1,0,0,0,1,0,0
159,159,0,1,1,1,1,0,0,1,1,1,1,0,0,1,0,0,0,1,0,0
160,160,0,1,1,1,1,0,0,1,1,1,1,0,0,1,0,0,0,1,0,0
161,161,0,1,1,1,1,0,0,1,1,1,1,0,0,1,0,0,0,1,0,0
162,162,0,1,1,1,1,0,0,1,1,1,1,0,0,1,0,0,0,1,0,0
163,163,0,1,1,1,1,0,0,1,1,1,1,0,0,1,0,0,0,1,0,0
164,164,0,1,1,1,1,0,0,1,1,1,1,0,0,1,0,0,0,1,0,0
165,165,0,1,1,1,1,0,0,1,1,1,1,0,0,1,0,0,0,1,0,0
166,166,0,1,1,1,1,0,0,1,1,1,1,0,0,1,0,0,0,1,0,0
167,167,0,1,1,1,1,0,0,1,1,1,1,0,0,1,0,0,0,1,0,0
168,168,0,1,1,1,1,0,0,1,1,1,1,0,0,1,0,0,0,1,0,0
169,169,0,1,1,1,1,0,0,1,1,1,1,0,0,1,0,0,0,1,0,0
170,170,0,1,1,1,1,0,0,1,1,1,1,0,0,1,0,0,0,1,0,0
171,171,0,1,1,1,1,0,0,1,1,1,1,0,0,1,0,0,0,1,0,0
172,172,0,1,1,1,1,0,0,1,1,1,1,0,0,1,0,0,0,1,0,0
173,173,0,1,1,1,1,0,0,1,1,1,1,0,0,1,0,0,0,1,0,0
174,174,0,1,1,1,1,0,0,1,1,1,1,0,0,1,0,0,0,1,0,0
175,175,0,1,1,1,1,0,0,1,1,1,1,0,0,1,0,0,0,1,0,0
176,176,0,1,1,1,1,0,0,1,1,1,1,0,0,1,0,0,0,1,0,0
177,177,0,1,1,1,1,0,0,1,1,1,1,0,0,1,0,0,0,1,0,0
178,178,0,1,1,1,1,0,0,1,1,1,1,0,0,1,0,0,0,1,0,0
179,179,0,1,1,1,1,0,0,1,1,1,1,0,0,1,0,0,0,1,0,0
180,180,0,1,1,1,1,0,0,1,1,1,1,0,0,1,0,0,0,1,0,0
181,181,0,1,1,1,1,0,0,1,1,1,1,0,0,1,0,0,0,1,0,0
182,182,0,1,1,1,1,0,0,1,1,1,1,0,0,1,0,0,0,1,0,0
183,183,0,1,1,1,1,0,0,1,1,1,1,0,0,1,0,0,0,1,0,0
184,184,0,1,1,1,1,0,0,1,1,1,1,0,0,1,0,0,0,1,0,0
185,185,0,1,1,1,1,0,0,1,1,1,1,0,0,1,0,0,0,1,0,0
186,186,0,1,1,1,1,0,0,1,1,1,1,0,0,1,0,0,0,1,0,0
187,187,0,1,1,1,1,0,0,1,1,1,1,0,0,1,0,0,0,1,0,0
188,188,0,1,1,1,1,0,0,1,1,1,1,0,0,1,0,0,0,1,0,0
189,189,0,1,1,1,1,0,0,1,1,1,1,0,0,1,0,0,0,1,0,0
190,190,0,1,1,1,1,0,0,1,1,1,1,0,0,1,0,0,0,1,0,0
191,191,0,1,1,1,1,0,0,1,1,1,1,0,0,1,0,0,0,1,0,0
192,192,0,1,1,1,1,0,0,1,1,1,1,0,0,1,0,0,0,1,0,0
193,193,0,1,1,1,1,0,0,1,1,1,1,0,0,1,0,0,0,1,0,0
194,194,0,1,1,1,1,0,0,1,1,1,1,0,0,1,0,0,0,1,0,0
195,195,0,1,1,1,1,0,0,1,1,1,1,0,0,1,0,0,0,1,0,0
196,196,0,1,1,1,1,0,0,1,1,1,1,0,0,1,0,0,0,1,0,0
197,197,0,1,1,1,1,0,0,1,1,1,1,0,0,1,0,0,0,1,0,0
198,198,0,1,1,1,1,0,0,1,1,1,1,0,0,1,0,0,0,1,0,0
199,199,0,1,1,1,1,0,0,1,1,1,1,0,0,1,0,0,0,1,0,0
200,200,0,1,1,1,1,0,0,1,1,1,1,0,0,1,0,0,0,1,0,0
201,201,0,1,1,1,1,0,0,1,1,1,1,0,0,1,0,0,0,1,0,0
202,202,0,1,1,1,1,0,0,1,1,1,1,0,0,1,0,0,0,1,0,0
203,203,0,1,1,1,1,0,0,1,1,1,1,0,0,1,0,0,0,1,0,0
204,204,0,1,1,1,1,0,0,1,1,1,1,0,0,1,0,0,0,1,0,0
205,205,0,1,1,1,1,0,0,1,1,1,1,0,0,1,0,0,0,1,0,0
206,206,0,1,1,1,1,0,0,1,1,1,1,0,0,1,0,0,0,1,0,0
207,207,0,1,1,1,1,0,0,1,1,1,1,0,0,1,0,0,0,1,0,0
208,208,0,1,1,1,1,0,0,1,1,1,1,0,0,1,0,0,0,1,0,0
209,209,0,1,1,1,1,0,0,1,1,1,1,0,0,1,0,0,0,1,0,0
210,210,0,1,1,1,1,0,0,1,1,1,1,0,0,1,0,0,0,1,0,0
211,211,0,1,1,1,1,0,0,1,1,1,1,0,0,1,0,0,0,1,0,0
212,212,0,1,1,1,1,0,0,1,1,1,1,0,0,1,0,0,0,1,0,0
213,213,0,1,1,1,1,0,0,1,1,1,1,0,0,1,0,0,0,1,0,0
214,214,0,1,1,1,1,0,0,1,1,1,1,0,0,1,0,0,0,1,0,0
215,215,0,1,1,1,1,0,0,1,1,1,1,0,0,1,0,0,0,1,0,0
216,216,0,1,1,1,1,0,0,1,1,1,1,0,0,1,0,0,0,1,0,0
217,217,0,1,1,1,1,0,0,1,1,1,1,0,0,1,0,0,0,1,0,0
218,218,0,1,1,1,1,0,0,1,1,1,1,0,0,1,0,0,0,1,0,0
219,219,0,1,1,1,1,0,0,1,1,1,1,0,0,1,0,0,0,1,0,0
220,220,0,1,1,1,1,0,0,1,1,1,1,0,0,1,0,0,0,1,0,0
221,221,0,1,1,1,1,0,0,1,1,1,1,0,0,1,0,0,0,1,0,0
222,222,0,1,1,1,1,0,0,1,1,1,1,0,0,1,0,0,0,1,0,0
223,223,0,1,1,1,1,0,0,1,1,1,1,0,0,1,0,0,0,1,0,0
224,224,0,1,1,1,1,0,0,1,1,1,1,0,0,1,0,0,0,1,0,0
225,225,0,1,1,1,1,0,0,1,1,1,1,0,0,1,0,0,0,1,0,0
226,226,0,1,1,1,1,0,0,1,1,1,1,0,0,1,0,0,0,1,0,0
227,227,0,1,1,1,1,0,0,1,1,1,1,0,0,1,0,0,0,1,0,0
228,228,0,1,1,1,1,0,0,1,1,1,1,0,0,1,0,0,0,1,0,0
229,229,0,1,1,1,1,0,0,1,1,1,1,0,0,1,0,0,0,1,0,0
230,230,0,1,1,1,1,0,0,1,1,1,1,0,0,1,0,0,0,1,0,0
231,231,0,1,1,1,1,0,0,1,1,1,1,0,0,1,0,0,0,1,0,0
232,232,0,1,1,1,1,0,0,1,1,1,1,0,0,1,0,0,0,1,0,0
233,233,0,1,1,1,1,0,0,1,1,1,1,0,0,1,0,0,0,1,0,0
234,234,0,1,1,1,1,0,0,1,1,1,1,0,0,1,0,0,0,1,0,0
235,235,0,1,1,1,1,0,0,1,1,1,1,0,0,1,0,0,0,1,0,0
236,236,0,1,1,1,1,0,0,1,1,1,1,0,0,1,0,0,0,1,0,0
237,237,0,1,1,1,1,0,0,1,1,1,1,0,0,1,0,0,0,1,0,0
238,238,0,1,1,1,1,0,0,1,1,1,1,0,0,1,0,0,0,1,0,0
239,239,0,1,1,1,1,0,0,1,1,1,1,0,0,1,0,0,0,1,0,0
240,240,0,1,1,1,1,0,0,1,1,1,1,0,0,1,0,0,0,1,0,0
241,241,0,1,1,1,1,0,0,1,1,1,1,0,0,1,0,0,0,1,0,0
242,242,0,1,1,1,1,0,0,1,1,1,1,0,0,1,0,0,0,1,0,0
243,243,0,1,1,1,1,0,0,1,1,1,1,0,0,1,0,0,0,1,0,0
244,244,0,1,1,1,1,0,0,1,1,1,1,0,0,1,0,0,0,1,0,0
245,245,0,1,1,1,1,0,0,1,1,1,1,0,0,1,0,0,0,1,0,0
246,246,0,1,1,1,1,0,0,1,1,1,1,0,0,1,0,0,0,1,0,0
247,247,0,1,1,1,1,0,0,1,1,1,1,0,0,1,0,0,0,1,0,0
248,248,0,1,1,1,1,0,0,1,1,1,1,0,0,1,0,0,0,1,0,0
249,249,0,1,1,1,1,0,0,1,1,1,1,0,0,1,0,0,0,1,0,0
250,250,0,1,1,1,1,0,0,1,1,1,1,0,0,1,0,0,0,1,0,0
251,251,0,1,1,1,1,0,0,1,1,1,1,0,0,1,0,0,0,1,0,0
252,252,0,1,1,1,1,0,0,1,1,1,1,0,0,1,0,0,0,1,0,0
253,253,0,1,1,1,1,0,0,1,1,1,1,0,0,1,0,0,0,1,0,0
254,254,0,1,1,1,1,0,0,1,1,1,1,0,0,1,0,0,0,1,0,0
255,255,0,1,1,1,1,0,0,1,1,1,1,0,0,1,0,0,0,1,0,0
256,0,0,1,1,1,1,1,1,1,1,1,1,1,1,1,1,1,1,1,1,0
257,1,0,1,1,1,1,1,1,1,1,1,1,1,1,1,1,1,1,1,1,0
258,2,0,1,1,1,1,1,1,1,1,1,1,1,1,1,1,1,1,1,1,0
259,3,0,1,1,1,1,1,1,1,1,1,1,1,1,1,1,1,1,1,1,0
260,4,0,1,1,1,1,1,1,1,1,1,1,1,1,1,1,1,1,1,1,0
261,5,0,1,1,1,1,1,1,1,1,1,1,1,1,1,1,1,1,1,1,0
262,6,0,1,1,1,1,1,1,1,1,1,1,1,1,1,1,1,1,1,1,0
263,7,0,1,1,1,1,1,1,1,1,1,1,1,1,1,1,1,1,1,1,0
264,8,0,1,1,1,1,1,1,1,1,1,1,1,1,1,1,1,1,1,1,0
265,9,0,1,1,1,1,1,1,1,1,1,1,1,1,1,1,1,1,1,1,0
266,10,0,1,1,1,1,1,1,1,1,1,1,1,1,1,1,1,1,1,1,0
267,11,0,1,1,1,1,1,1,1,1,1,1,1,1,1,1,1,1,1,1,0
268,12,0,1,1,1,1,1,1,1,1,1,1,1,1,1,1,1,1,1,1,0
269,13,0,1,1,1,1,1,1,1,1,1,1,1,1,1,1,1,1,1,1,0
270,14,0,1,1,1,1,1,1,1,1,1,1,1,1,1,1,1,1,1,1,0
271,15,0,1,1,1,1,1,1,1,1,1,1,1,1,1,1,1,1,1,1,0
272,16,0,1,1,1,1,1,1,1,1,1,1,1,1,1,1,1,1,1,1,0
273,17,0,1,1,1,1,1,1,1,1,1,1,1,1,1,1,1,1,1,1,0
274,18,0,1,1,1,1,1,1,1,1,1,1,1,1,1,1,1,1,1,1,0
275,19,0,1,1,1,1,1,1,1,1,1,1,1,1,1,1,1,1,1,1,0
276,20,0,1,1,1,1,1,1,1,1,1,1,1,1,1,1,1,1,1,1,0
277,21,0,1,1,1,1,1,1,1,1,1,1,1,1,1,1,1,1,1,1,0
278,22,0,1,1,1,1,1,1,1,1,1,1,1,1,1,1,1,1,1,1,0
279,23,0,1,1,1,1,1,1,1,1,1,1,1,1,1,1,1,1,1,1,0
280,24,0,1,1,1,1,1,1,1,1,1,1,1,1,1,1,1,1,1,1,0
281,25,0,1,1,1,1,1,1,1,1,1,1,1,1,1,1,1,1,1,1,0
282,26,0,1,1,1,1,1,1,1,1,1,1,1,1,1,1,1,1,1,1,0
283,27,0,1,1,1,1,1,1,1,1,1,1,1,1,1,1,1,1,1,1,0
284,28,0,1,1,1,1,1,1,1,1,1,1,1,1,1,1,1,1,1,1,0
285,29,0,1,1,1,1,1,1,1,1,1,1,1,1,1,1,1,1,1,1,0
286,30,0,1,1,1,1,1,1,1,1,1,1,1,1,1,1,1,1,1,1,0
287,31,0,1,1,1,1,1,1,1,1,1,1,1,1,1,1,1,1,1,1,0
288,32,0,1,1,1,1,1,1,1,1,1,1,1,1,1,1,1,1,1,1,0
289,33,0,1,1,1,1,1,1,1,1,1,1,1,1,1,1,1,1,1,1,0
290,34,0,1,1,1,1,1,1,1,1,1,1,1,1,1,1,1,1,1,1,0
291,35,0,1,1,1,1,1,1,1,1,1,1,1,1,1,1,1,1,1,1,0
292,36,0,1,1,1,1,1,1,1,1,1,1,1,1,1,1,1,1,1,1,0
293,37,0,1,1,1,1,1,1,1,1,1,1,1,1,1,1,1,1,1,1,0
294,38,0,1,1,1,1,1,1,1,1,1,1,1,1,1,1,1,1,1,1,0
295,39,0,1,1,1,1,1,1,1,1,1,1,1,1,1,1,1,1,1,1,0
296,40,0,1,1,1,1,1,1,1,1,1,1,1,1,1,1,1,1,1,1,0
297,41,0,1,1,1,1,1,1,1,1,1,1,1,1,1,1,1,1,1,1,0
298,42,0,1,1,1,1,1,1,1,1,1,1,1,1,1,1,1,1,1,1,0
299,43,0,1,1,1,1,1,1,1,1,1,1,1,1,1,1,1,1,1,1,0
300,44,0,1,1,1,1,1,1,1,1,1,1,1,1,1,1,1,1,1,1,0
301,45,0,1,1,1,1,1,1,1,1,1,1,1,1,1,1,1,1,1,1,0
302,46,0,1,1,1,1,1,1,1,1,1,1,1,1,1,1,1,1,1,1,0
303,47,0,1,1,1,1,1,1,1,1,1,1,1,1,1,1,1,1,1,1,0
304,48,0,1,1,1,1,1,1,1,1,1,1,1,1,1,1,1,1,1,1,0
305,49,0,1,1,1,1,1,1,1,1,1,1,1,1,1,1,1,1,1,1,0
306,50,0,1,1,1,1,1,1,1,1,1,1,1,1,1,1,1,1,1,1,0
307,51,0,1,1,1,1,1,1,1,1,1,1,1,1,1,1,1,1,1,1,0
308,52,0,1,1,1,1,1,1,1,1,1,1,1,1,1,1,1,1,1,1,0
309,53,0,1,1,1,1,1,1,1,1,1,1,1,1,1,1,1,1,1,1,0
310,54,0,1,1,1,1,1,1,1,1,1,1,1,1,1,1,1,1,1,1,0
311,55,0,1,1,1,1,1,1,1,1,1,1,1,1,1,1,1,1,1,1,0
312,56,0,1,1,1,1,1,1,1,1,1,1,1,1,1,1,1,1,1,1,0
313,57,0,1,1,1,1,1,1,1,1,1,1,1,1,1,1,1,1,1,1,0
314,58,0,1,1,1,1,1,1,1,1,1,1,1,1,1,1,1,1,1,1,0
315,59,0,1,1,1,1,1,1,1,1,1,1,1,1,1,1,1,1,1,1,0
316,60,0,1,1,1,1,1,1,1,1,1,1,1,1,1,1,1,1,1,1,0
317,61,0,1,1,1,1,1,1,1,1,1,1,1,1,1,1,1,1,1,1,0
318,62,0,1,1,1,1,1,1,1,1,1,1,1,1,1,1,1,1,1,1,0
319,63,1,1,1,1,1,1,1,1,1,1,1,1,1,1,1,1,1,1,0,0
320,64,0,1,1,1,1,1,1,1,1,0,1,1,1,1,0,0,0,1,0,0
321,65,0,1,1,1,1,1,1,1,1,1,1,1,1,0,0,0,0,1,0,0
322,66,0,1,1,1,1,1,1,1,1,1,1,1,1,1,0,0,0,1,0,0
323,67,0,1,1,1,1,1,1,1,1,1,1,0,1,1,0,0,0,1,0,0
324,68,0,1,1,1,1,1,0,1,1,1,1,0,0,1,0,0,0,1,0,0
325,69,0,1,1,1,1,1,1,1,1,1,1,0,1,1,0,0,0,1,0,0
326,70,0,1,1,1,1,1,0,1,1,1,1,0,1,1,0,0,0,1,0,0
327,71,0,1,1,1,1,1,1,1,1,1,1,0,1,1,0,0,0,1,0,0
328,72,0,1,1,1,1,1,0,1,1,1,1,0,0,1,0,0,0,1,0,0
329,73,0,1,1,1,1,1,1,1,1,1,1,0,0,1,0,0,0,1,0,0
330,74,0,1,1,1,1,1,0,1,1,1,1,0,0,1,0,0,0,1,0,0
331,75,0,1,1,1,1,1,1,1,1,1,1,0,0,1,0,0,0,1,0,0
332,76,0,1,1,1,1,1,0,1,1,1,1,0,0,1,0,0,0,1,0,0
333,77,0,1,1,1,1,0,0,1,1,1,1,0,0,1,0,0,0,1,0,0
334,78,0,1,1,1,1,1,0,1,1,1,1,0,0,1,0,0,0,1,0,0
335,79,0,1,1,1,1,1,0,1,1,1,1,0,0,1,0,0,0,1,0,0
336,80,0,1,1,1,1,0,0,1,1,1,1,0,0,1,0,0,0,1,0,0
337,81,0,1,1,1,1,1,0,1,1,1,1,0,0,1,0,0,0,1,0,0
338,82,0,1,1,1,1,1,0,1,1,1,1,0,0,1,0,0,0,1,0,0
339,83,0,1,1,1,1,0,0,1,1,1,1,0,0,1,0,0,0,1,0,0
340,84,0,1,1,1,1,1,0,1,1,1,1,0,0,1,0,0,0,1,0,0
341,85,0,1,1,1,1,1,0,1,1,1,1,0,0,1,0,0,0,1,0,0
342,86,0,1,1,1,1,0,0,1,1,1,1,0,0,1,0,0,0,1,0,0
343,87,0,1,1,1,1,0,0,1,1,1,1,0,0,1,0,0,0,1,0,0
344,88,0,1,1,1,1,0,0,1,1,1,1,0,0,1,0,0,0,1,0,0
345,89,0,1,1,1,1,0,0,1,1,1,1,0,0,1,0,0,0,1,0,0
346,90,0,1,1,1,1,0,0,1,1,1,1,0,0,1,0,0,0,1,0,0
347,91,0,1,1,1,1,0,0,1,1,1,1,0,0,1,0,0,0,1,0,0
348,92,0,1,1,1,1,0,0,1,1,1,1,0,0,1,0,0,0,1,0,0
349,93,0,1,1,1,1,0,0,1,1,1,1,0,0,1,0,0,0,1,0,0
350,94,0,1,1,1,1,0,0,1,1,1,1,0,0,1,0,0,0,1,0,0
351,95,0,1,1,1,1,0,0,1,1,1,1,0,0,1,0,0,0,1,0,0
352,96,0,1,1,1,1,0,0,1,1,1,1,0,0,1,0,0,0,1,0,0
353,97,0,1,1,1,1,0,0,1,1,1,1,0,0,1,0,0,0,1,0,0
354,98,0,1,1,1,1,0,0,1,1,1,1,0,0,1,0,0,0,1,0,0
355,99,0,1,1,1,1,0,0,1,1,1,1,0,0,1,0,0,0,1,0,0
356,100,0,1,1,1,1,0,0,1,1,1,1,0,0,1,0,0,0,1,0,0
357,101,0,1,1,1,1,0,0,1,1,1,1,0,0,1,0,0,0,1,0,0
358,102,0,1,1,1,1,0,0,1,1,1,1,0,0,1,0,0,0,1,0,0
359,103,0,1,1,1,1,0,0,1,1,1,1,0,0,1,0,0,0,1,0,0
360,104,0,1,1,1,1,0,0,1,1,1,1,0,0,1,0,0,0,1,0,0
361,105,0,1,1,1,1,0,0,1,1,1,1,0,0,1,0,0,0,1,0,0
362,106,0,1,1,1,1,0,0,1,1,1,1,0,0,1,0,0,0,1,0,0
363,107,0,1,1,1,1,0,0,1,1,1,1,0,0,1,0,0,0,1,0,0
364,108,0,1,1,1,1,0,0,1,1,1,1,0,0,1,0,0,0,1,0,0
365,109,0,1,1,1,1,0,0,1,1,1,1,0,0,1,0,0,0,1,0,0
366,110,0,1,1,1,1,0,0,1,1,1,1,0,0,1,0,0,0,1,0,0
367,111,0,1,1,1,1,0,0,1,1,1,1,0,0,1,0,0,0,1,0,0
368,112,0,1,1,1,1,0,0,1,1,1,1,0,0,1,0,0,0,1,0,0
369,113,0,1,1,1,1,0,0,1,1,1,1,0,0,1,0,0,0,1,0,0
370,114,0,1,1,1,1,0,0,1,1,1,1,0,0,1,0,0,0,1,0,0
371,115,0,1,1,1,1,0,0,1,1,1,1,0,0,1,0,0,0,1,0,0
372,116,0,1,1,1,1,0,0,1,1,1,1,0,0,1,0,0,0,1,0,0
373,117,0,1,1,1,1,0,0,1,1,1,1,0,0,1,0,0,0,1,0,0
374,118,0,1,1,1,1,0,0,1,1,1,1,0,0,1,0,0,0,1,0,0
375,119,0,1,1,1,1,0,0,1,1,1,1,0,0,1,0,0,0,1,0,0
376,120,0,1,1,1,1,0,0,1,1,1,1,0,0,1,0,0,0,1,0,0
377,121,0,1,1,1,1,0,0,1,1,1,1,0,0,1,0,0,0,1,0,0
378,122,0,1,1,1,1,0,0,1,1,1,1,0,0,1,0,0,0,1,0,0
379,123,0,1,1,1,1,0,0,1,1,1,1,0,0,1,0,0,0,1,0,0
380,124,0,1,1,1,1,0,0,1,1,1,1,0,0,1,0,0,0,1,0,0
381,125,0,1,1,1,1,0,0,1,1,1,1,0,0,1,0,0,0,1,0,0
382,126,0,1,1,1,1,0,0,1,1,1,1,0,0,1,0,0,0,1,0,0
383,127,0,1,1,1,1,0,0,1,1,1,1,0,0,1,0,0,0,1,0,0
384,128,0,1,1,1,1,0,0,1,1,1,1,0,0,1,0,0,0,1,0,0
385,129,0,1,1,1,1,0,0,1,1,1,1,0,0,1,0,0,0,1,0,0
386,130,0,1,1,1,1,0,0,1,1,1,1,0,0,1,0,0,0,1,0,0
387,131,0,1,1,1,1,0,0,1,1,1,1,0,0,1,0,0,0,1,0,0
388,132,0,1,1,1,1,0,0,1,1,1,1,0,0,1,0,0,0,1,0,0
389,133,0,1,1,1,1,0,0,1,1,1,1,0,0,1,0,0,0,1,0,0
390,134,0,1,1,1,1,0,0,1,1,1,1,0,0,1,0,0,0,1,0,0
391,135,0,1,1,1,1,0,0,1,1,1,1,0,0,1,0,0,0,1,0,0
392,136,0,1,1,1,1,0,0,1,1,1,1,0,0,1,0,0,0,1,0,0
393,137,0,1,1,1,1,0,0,1,1,1,1,0,0,1,0,0,0,1,0,0
394,138,0,1,1,1,1,0,0,1,1,1,1,0,0,1,0,0,0,1,0,0
395,139,0,1,1,1,1,0,0,1,1,1,1,0,0,1,0,0,0,1,0,0
396,140,0,1,1,1,1,0,0,1,1,1,1,0,0,1,0,0,0,1,0,0
397,141,0,1,1,1,1,0,0,1,1,1,1,0,0,1,0,0,0,1,0,0
398,142,0,1,1,1,1,0,0,1,1,1,1,0,0,1,0,0,0,1,0,0
399,143,0,1,1,1,1,0,0,1,1,1,1,0,0,1,0,0,0,1,0,0
400,144,0,1,1,1,1,0,0,1,1,1,1,0,0,1,0,0,0,1,0,0
401,145,0,1,1,1,1,0,0,1,1,1,1,0,0,1,0,0,0,1,0,0
402,146,0,1,1,1,1,0,0,1,1,1,1,0,0,1,0,0,0,1,0,0
403,147,0,1,1,1,1,0,0,1,1,1,1,0,0,1,0,0,0,1,0,0
404,148,0,1,1,1,1,0,0,1,1,1,1,0,0,1,0,0,0,1,0,0
405,149,0,1,1,1,1,0,0,1,1,1,1,0,0,1,0,0,0,1,0,0
